#Digilent WaveForms Network Analyzer - Bode
#Device Name: Discovery2
#Serial Number: SN:210321A7F296
#Date Time: 2026-07-05 20:58:46.421
#Start: 10 Hz
#Stop: 2.5e+07 Hz
#Steps: 1001
#Wavegen: Wavegen C1
#Amplification: 1 X
#Settle: 10 ms
#MinPeriods: 16 
#Channel: Channel 1
#Range: 5.45848 V
#Offset: -0.000277946 V
#Relative: no
#Channel: Channel 2
#Range: 5.54417 V
#Offset: 0.000228067 V
#Relative: yes

Frequency (Hz),Channel 1 Magnitude (dB),Channel 2 Magnitude (dB),Channel 2 Phase (deg)
10,-0.002992679454013898,0.005347838061375717,0.001397636147515868
10.14840849106678,-0.003112581089614148,0.005516340772418197,0.0006149957094123693
10.29901949015561,-0.003062763055755964,0.005923666518683914,0.0008781728653417531
10.45186568435574,-0.002857216558329785,0.005856961096318581,-0.001286716315217262
10.60698024586051,-0.002789555639485331,0.005741176880408994,0.0009371618892828337
10.76439683916683,-0.002839162622233831,0.00568433719663723,-0.0004469465285836804
10.92414962838129,-0.002736415524978509,0.005753766039227158,0.0005391923024049561
11.08627328463486,-0.002745524548419468,0.005869930183848909,0.0006410609764770925
11.2508029936075,-0.002763126432557979,0.00575784315974298,0.001029761076026148
11.41777446316459,-0.002538796444445742,0.005777784444121231,0.0005397709581913546
11.58722393110649,-0.002618245087435776,0.005871342860513054,0.0006196474217290415
11.7591881730333,-0.002372107973395713,0.005554879637410555,0.0004588512373473463
11.93370451032632,-0.002232673428597494,0.005493150066938684,0.0001601726231399425
12.11081081824773,-0.002373555709681402,0.005453088616608907,6.93841391594674e-05
12.29054553416086,-0.002334573366982373,0.005601053322171371,0.0003175348308133152
12.47294766587207,-0.00222005865767403,0.005673921542461862,-0.00112482081343046
12.65805680009677,-0.002089072355002689,0.005503563118110589,-0.0009007768542907968
12.84591311105073,-0.002088339938454392,0.005632400985473683,0.001185367192704234
13.03655736916933,-0.001808472957185159,0.005424551507823228,-0.0006469191405500396
13.23003094995569,-0.001703890431933201,0.00550897940244187,-0.0007627286680360612
13.42637584296066,-0.001699244139682587,0.005627039815848217,-0.0003966837833786485
13.62563466089558,-0.00209698376888924,0.006025024394451762,0.0005917972576767738
13.82785064888063,-0.00151505080200546,0.005299962634689792,0.0001781861099914295
14.03306769383034,-0.001609194408604431,0.005648041673321008,-0.0003836541007473659
14.24133033397824,-0.001855531378654575,0.005703403569542244,0.0006796330802103512
14.45268376854316,-0.001973609833924947,0.005906707495784928,0.000786610676883015
14.66717386753861,-0.001946354035994778,0.005981815049457898,-0.001377545854296613
14.88484718172816,-0.001764786656351392,0.00581556474490251,0.0001717007867227949
15.10575095272812,-0.001532875788308155,0.005753361154429358,-0.000537746561349195
15.32993312326061,-0.001413630301601551,0.005448348220343622,0.000605176663093232
15.55744234755838,-0.001385042378682201,0.005513007090713779,-0.0004937924655052939
15.7883280019243,-0.00166078334298643,0.005879658970015842,-0.0002183836075460022
16.02264019544759,-0.001646067492815213,0.005756164775427044,-0.0003685114082259133
16.26042978087878,-0.001402211802396522,0.00578846171212421,0.00127779134831485
16.50174836566654,-0.001463767313576432,0.005888157834655371,-0.0009342704977086669
16.74664832315773,-0.001333483191421285,0.005641892097188795,0.0001214178319060011
16.99518280396431,-0.001464748852651151,0.005763788034065195,0.0003747936941067564
17.24740574749831,-0.001353818462659033,0.005851362374612334,-4.048945405088489e-05
17.50337189367858,-0.001192645688408313,0.005820881871267454,-0.0004994911603120045
17.76313679481069,-0.001248624497718967,0.006070933031196122,0.0004924516035487159
18.02675682764376,-0.000974928677376277,0.005788817767053835,0.0007957643056890618
18.29428920560559,-0.0009713192758741701,0.005770629439652506,-0.000492618263933764
18.56579199121987,-0.0009082306843705811,0.005802927903731047,-0.003543781096562171
18.84132410870752,-0.001042158271607564,0.00588150388843796,0.0003301189868096799
19.12094535677483,-0.001121166695509421,0.005675078182090358,0.0002680029832475839
19.40471642159175,-0.001112198005033759,0.005821154315557566,0.0004777602349330667
19.69269888996243,-0.001160389212378042,0.00579303085556938,-0.0003865818626422879
19.9849552626916,-0.00105568817014572,0.005926085178718662,-0.0007877865166534548
20.28154896814887,-0.001255646505562188,0.005889165388824502,6.071984716982115e-05
20.58254437603486,-0.001091714886653704,0.005992549459177287,-0.001032331145012222
20.88800681135109,-0.0009384267544398669,0.005869595930698247,-0.0008548580928078309
21.19800256857757,-0.0009328455212704528,0.005797648902757583,0.0005257883040705735
21.5125989260608,-0.0009744402503833687,0.005796732507460986,-0.001122259792850855
21.8318641606149,-0.0008992561477726843,0.005854956969200695,-0.0005980009469226388
22.15586756234007,-0.0007880935599838962,0.00582331477421312,-0.0004608280874407455
22.48467944966025,-0.0009487771916420803,0.005759185496652282,3.722719069543245e-05
22.81837118458467,-0.0009074351077191593,0.006076175328701144,-0.001548300253524815
23.15701518819521,-0.0008095065257993811,0.005778273825159858,0.0004015600769520233
23.50068495636426,-0.0007302067444497043,0.005816067110901504,0.0001377853662205553
23.84945507570519,-0.0006720101026355474,0.006058929258429548,5.084209168515486e-05
24.20340123976022,-0.0008085084142174356,0.005699672844245753,-0.0005107693545340908
24.56260026542783,-0.0008141323005568569,0.005882196050622939,0.0002431934357502996
24.92713010963469,-0.0006242449749655869,0.005864995613311933,0.0005317357566880787
25.29706988625425,-0.0006581729879273813,0.005590200571587903,0.0001723104396020858
25.67249988327723,-0.0005175133196821317,0.005603874940446298,-0.0002824392731213266
26.05350158023609,-0.0005186659350002032,0.005817526384424504,-0.0003595830868050598
26.44015766588897,-0.0004476678715453694,0.005519628014883918,-0.001118421678569348
26.83255205616514,-0.0005594832174916624,0.00586798209932233,0.0006014540652898859
27.23076991237776,-0.0003693812669021825,0.005720967636849039,-0.00112963540015798
27.63489765970597,-0.0005865646639158259,0.005854028550277985,-0.0004636799481119169
28.0450230059522,-0.0004220911259971769,0.005874465892726211,-0.001720063922519444
28.46123496057672,-0.0003444803094881406,0.005823981328400035,-2.627681691080852e-05
28.88362385401635,-0.0003726854712446774,0.005898146210716544,-0.0005656446198258891
29.31228135728778,-0.0003115964338415232,0.005662048248642425,-0.0005825060661379666
29.74730050188377,-0.0002117725254022985,0.005485598871880228,0.0002707867379854179
30.18877569996317,-0.0001858733996363708,0.005693533835418636,0.000762104476194736
30.63680276484166,-0.0003535430776877211,0.005650135967160333,-0.0006403987922851684
31.09147893178572,-0.0001741683118213913,0.005661845319991077,0.0004943978368885382
31.55290287911574,-0.0001328447192568329,0.00547822975533908,-0.0001737685184224347
32.02117474962236,-9.131172693893432e-05,0.005459304000415114,-0.002128759945037473
32.4963961723,-0.0005999459451940706,0.005891742678461551,-0.001504956397013757
32.97867028440392,-0.0004254061753389375,0.005750016739588938,-0.002007460175107667
33.46810175383357,-0.00029464554883194,0.005724587957985368,0.0006646579276221587
33.96479680184915,-0.0003777522062228295,0.005784402062603461,-0.002367999298016343
34.46886322612429,-0.0001730053025645782,0.005738394009920804,-0.000328651733795482
34.98041042414192,-0.0001573381461276407,0.00557342719105926,-0.00095357334290469
35.49954941693627,-0.0001035108171134023,0.005614183295641062,-0.0001070405973848665
36.02639287318799,-7.615372105324295e-05,0.005575069927989356,-0.001311772489657415
36.56105513367687,-0.00026369697361228,0.005700194183165318,-0.0003873288686691012
37.10365223609661,7.609641809418261e-06,0.005710105314154966,-0.0005308180816285812
37.65430194023916,-5.807079233667472e-05,0.005420633330183454,-8.361418899660578e-05
38.21312375355146,-2.849995104679795e-05,0.005329199463339424,0.0001400129969226782
38.78023895707273,0.0001779856927066985,0.005662986569797039,-0.001346561884446373
39.35577063175547,0.0001705673653649989,0.005499557595104168,-0.000546832442374523
39.93984368517837,-6.654036445367162e-06,0.006032697086403903,-0.0004320218524043185
40.53258487865432,0.0002937475234683443,0.005445514605403545,-0.00133117839934016
41.13412285474203,0.0002133773894050524,0.00569119464189003,-0.0004216444888811566
41.7445881651648,0.0002244822420848177,0.005690578211359579,-0.002944270159435547
42.36411329914434,4.653631090697558e-05,0.005660023746194917,-0.000252079039270825
42.99283271215513,-5.934046704253917e-06,0.005555439266922884,0.0001025970549051181
43.63088285510478,8.309588269154985e-05,0.005472526699397417,-0.001213710441646754
44.27840220394852,0.0002082953420837684,0.005736575217851161,-0.001297534641821585
44.93553128974202,-6.791657422817745e-06,0.005676698104926388,-0.0004481001574845322
45.60241272914148,7.615410170925714e-05,0.005221657760733346,-0.0007980317816418392
46.27919125535502,8.201006526008336e-05,0.005577622569278447,-5.793903855533244e-05
46.96601374955482,-5.89775796521475e-05,0.005773722360524126,-0.000312269968357981
47.66302927275411,-7.149072223086553e-05,0.005678913834044974,-0.0001309345754805236
48.37038909815812,-6.912173881107472e-06,0.005733997879119209,0.0005088439658464949
49.08824674399517,0.0002320859816281672,0.005466104683232447,-0.000182270430883591
49.81675800683407,0.0002449527093797131,0.005516346540583401,-0.001673106354374454
50.55608099539738,0.0002596738586471915,0.005510572783008924,-0.0002101327159778066
51.30637616487495,0.0001668583219744836,0.005543454831459883,-0.001657988897363794
52.0678063517483,0.0003385750913019358,0.00531636825763448,-0.0007362701001127903
52.84053680913021,-7.75133978843475e-05,0.005520789098995119,-0.0006631382626380855
53.62473524263036,0.0002816521136720632,0.005428603484313128,0.0001277143263145319
54.42057184675168,4.152948700794732e-05,0.005524439215354638,-0.0006239992996484034
55.22821934182844,-0.0003335216025213846,0.005743543187493249,-0.0011634125497757
56.04785301151101,0.0001254034679599439,0.005567840407517871,-0.001395193281439333
56.87965074080798,5.443409202566443e-05,0.00518993453169045,-0.0007640317356276682
57.72379305469284,-8.558514916891024e-05,0.005543875016369071,-0.0007973352149974744
58.58046315728252,-0.0001452582391082032,0.005961488521693076,-0.0004481516024839038
59.44984697159904,0.000171379024653761,0.005325347669144265,-0.0002959164897333721
60.3321331799195,0.0004530550059025784,0.005414225914348347,0.00035841573864559
61.22751326472667,0.0001426249849155185,0.005790930410856061,0.0009611787420311657
62.13618155026546,-0.0001679716588823731,0.006078939085890115,-0.003658366848469541
63.05833524471809,-0.0002637290318566361,0.006056263212813637,-0.0007832657809281329
63.99417448300325,2.010618057231068e-05,0.006031668899586745,0.001432726506216397
64.94390237021177,0.0002889827198905786,0.005700249735686794,-0.001123771543877439
65.9077250256869,0.000114468315464352,0.005678050594439371,0.0008076674424870589
66.88585162775739,0.0004497041591821475,0.005332619933236308,-0.0006182966270209533
67.87849445913658,0.0003781762994682172,0.005654942110334677,-0.001992276534288351
68.88586895299294,0.000557151147414598,0.005247685481059717,-0.000519623049555662
69.90819373970669,0.0002519537295720687,0.005727734904927343,-0.001692837510091749
70.94569069431792,0.0002117861873999033,0.005825225805029456,-0.000925657370384414
71.99858498468133,0.0002060646282285818,0.005904456575840336,0.000433363669393394
73.0671051203333,8.532811915632255e-05,0.005646898635621208,-0.0007764324715431314
74.15148300208578,0.0003360085604815508,0.005587713400681612,-0.001572612146702568
75.25195397235611,0.0002275599658591847,0.005661053522049261,-0.0002982407835645517
76.36875686624235,0.0002205290512003534,0.005744372801108667,-0.0001842898312247598
77.50213406335881,0.0001231283026927777,0.005594587702020563,-0.0004297999220099769
78.65233154043847,0.0003421305987276381,0.005733054458860837,-0.002494305836421518
79.81959892471851,0.0002346538944412799,0.005629176132148962,-0.0005627571091153527
81.00418954811562,0.0001978884077176422,0.005876148468319533,-0.002431518288005918
82.20636050220793,0.0003675887337413801,0.00558662739137307,-0.002067783531771283
83.42637269403019,0.0004288510253727103,0.005764741786541421,-0.001178895765050592
84.66449090269975,0.0003613655478127534,0.005566919449585291,-0.001597567922033249
85.92098383688041,0.0003800851283063816,0.005613807430579675,-0.0006727258869148045
87.19612419310067,0.0003055776300497199,0.005759429571055118,-0.001748528403751948
88.49018871493762,0.0003620958187288206,0.00552105782802183,-0.0003932987300601098
89.80345825307725,0.0003511296836315925,0.005722879553254736,-0.001162874405054026
91.136217826269,0.0004293325071160714,0.00550919891226088,-0.00177664805980271
92.48875668318179,0.0002717783182276548,0.005948443871397587,-0.0002874332976148253
93.86136836518114,0.0002755382531483203,0.005919067328212955,-0.002594256965920749
95.25435077003488,0.0002618409409589331,0.005825399392791124,-0.001205470710210932
96.66800621656753,0.0003579950652472679,0.005605620664135814,-0.000782767785381111
98.102641510271,0.0003151304874004762,0.005820459337235446,-0.001801887217354192
99.55856800989123,0.0002738156004369973,0.005881090024757504,-0.000432947594454447
101.0361016950029,0.0004567365827924894,0.005659758068603854,-0.001735649141835438
102.5355632345852,0.0003781470418220178,0.005805143866315502,-0.002538609014273163
104.0572780566179,0.0003676958894069631,0.005712420123208324,-0.0009478848654396188
105.6015764187076,0.0003941805108257643,0.005407026132558889,-0.001768194035406623
107.1687934797649,0.0002036507711088743,0.005753249291154599,-0.001273163355016038
108.7592693727426,0.0003766161038292229,0.005939952805298783,-0.00134828202671855
110.373349278456,0.000211984011889022,0.005921386218128988,-0.002265459547800219
112.011383500496,-2.445368033181631e-05,0.005966425644241699,0.000224552882258422
113.673727541257,2.18282441271806e-05,0.005954395388520912,-0.0003908684930422623
115.3607421790904,0.0002792236403693174,0.005861320286272228,-0.001925444203550342
117.0727935466044,0.0001689494209725271,0.005906177222813163,-0.001190363089477842
118.8102532101268,0.0003552323779195575,0.005506309151202146,-0.002242632549808832
120.5734982503442,0.0002716468787024055,0.005906274338254856,-0.002471030569601851
122.3629113441419,0.0005053539773965801,0.005659730722117047,-0.002861481050970838
124.1788808476538,0.0003243431094659908,0.00580472516339803,-0.002487671600306385
126.0218008805497,9.58696332500075e-05,0.005903710148587901,0.0009334419521280779
127.8920714115697,0.0002023506723724311,0.005755896820727868,-0.002181979776239018
129.790098345329,0.0002649008804083492,0.00582338256388838,-0.004231640783402213
131.7162936104132,2.496400397926029e-05,0.006033642852235721,-0.001537105916554538
133.6710752487757,0.0003150654040047598,0.00560552034418095,-0.0002648678046170971
135.6548675064704,-5.311258385794261e-05,0.005761923017728319,-0.002472916242432177
137.6681009257197,0.0003508374826622144,0.005599347864718794,-0.004590071429987574
139.7112124383615,0.0001511441338059825,0.005804893391761915,-0.00333931506099816
141.7846454606696,0.0004278138896454479,0.005712726446729291,-0.001033299605040838
143.8888499895955,-9.059785860125258e-05,0.005950986805627429,-0.00297554313081605
146.0242827004242,0.000218036905792559,0.005801436390351745,-0.002766021103127514
148.191407045892,0.0006432660269787708,0.005778962114701222,-0.001489170392197536
150.3906933567661,0.0001210839717219825,0.00589914651249432,-0.003520680620177075
152.6226189439225,0.0004161676818907639,0.005798255776982661,-0.004005247309368798
154.8876682019349,0.0005182840423790775,0.005786449877905774,-0.002710008544710263
157.186332714205,0.0004928139547338708,0.00559003902158393,-0.0040960418367888
159.5191113596482,0.0001604162580319489,0.00623586073857485,-0.003258921614616384
161.8865104209681,3.950472374378107e-06,0.005850248247549467,-0.002582441352629417
164.289043694532,0.0002586246769031511,0.005974538234605807,-0.002782291983905338
166.7272326018829,0.0004305948606250856,0.005678308931345506,-0.002170189297899583
169.201606302901,0.0005213305451270031,0.005735919249779179,-0.002670951913827935
171.7127018106499,8.867664873880598e-05,0.005941048654268291,-0.001499414676175093
174.2610641079214,0.0002799781584580559,0.005887333885605596,-0.002931043789718757
176.8472462655165,0.0004855410820600723,0.005578699279871839,-0.003924028828009796
179.4718095622737,2.529091258088602e-05,0.005929023658279221,-0.002408341133829595
182.1353236068902,0.0003101281742626406,0.005857794711373742,-0.004235335663741902
184.8383664615353,0.0001174840194655029,0.006278561346238645,-0.0006139897259203053
187.5815247673161,0.0003732354904486924,0.005781624629969399,-0.002139850378785724
190.3653938715876,0.0007502859879583945,0.005751118447814002,-0.002824587743397444
193.1905779571695,0.0005431753444261669,0.00580726209599357,-0.001443858592494962
196.0576901734633,0.0003912849797834941,0.006079400868513929,-0.004702896975311788
198.9673527695315,0.0007406095222883573,0.005706300711170085,-0.002593679661316628
201.9201972291388,0.00053072385195425,0.005882634236408502,-0.002772107317454697
204.9168644078066,0.0004264794222482928,0.005856181161294036,-0.003002529773965534
207.9580046718964,0.00025727987394379,0.005853749226371172,-0.003648690955031952
211.0442780397574,0.0004352132272749506,0.005696670442567183,-0.002809578707143601
214.1763543249731,0.0004427849799690835,0.005950706554790071,-0.002666948040086936
217.354913281728,0.0004258277677249721,0.006004198632934983,-0.004320841388050667
220.5806447523372,0.0005759478510630201,0.005787306390459833,-0.004886047281075889
223.8542488169603,0.0001789878103667055,0.005972480490630236,-0.005038578036447916
227.176435945541,7.784517891813391e-05,0.005910853465945075,-0.003248655812313928
230.5479271520016,0.0005628531349006272,0.005561492429177451,-0.003386309308609725
233.9694541507214,0.0002479814025776803,0.005964209550922105,-0.002297816483306292
237.441759515344,0.0001147363921934552,0.005837443309881426,-0.004439208977032649
240.9655968399348,0.0007403852335205637,0.005606776163818382,-0.003064307899080632
244.5417309025368,0.0006404053000875569,0.005616598450450343,-0.004390433868238119
248.1709378311466,0.0004998828898713734,0.005910393934669264,-0.004649678889776965
251.8540052721614,0.000171516131010251,0.00583696155799525,-0.004615199659639302
255.5917325613174,0.000535902492735916,0.006021567619984701,-0.002498716470270779
259.3849308971743,0.0002714082534654613,0.00566897145150696,-0.005055087930884383
263.2344235171653,2.487522576521349e-05,0.006059750474090024,-0.002967673202604715
267.1410458762663,0.0001252632576142429,0.0060004730768342,-0.00623084408334762
271.105645828316,0.000224927970566147,0.005774282905362277,-0.003428119604937052
275.1290838100219,7.29312127870226e-05,0.00595983165008182,-0.004223600032332797
279.2122330277049,0.000467151024800217,0.005457700999365734,-0.003282360861874167
283.3559796468071,0.0006322247543074186,0.005585590410411246,-0.005178341898769645
287.5612229842202,0.0008611178065874178,0.005674535650369754,-0.00390175559843442
291.8288757034601,0.0007051563083103605,0.005933579735672221,-0.004264847163980789
296.1598640127466,0.0008728785580480981,0.005501059449231788,-0.004219712610591841
300.555127866014,0.000490347924052683,0.005709578831075848,-0.005415162842524524
305.0156211669111,0.0003294563301474101,0.005929133481225785,-0.003874696832156133
309.5423119758288,0.0009578049999001841,0.005734175552686073,-0.004883509983926615
314.1361827199936,0.0006266170784629541,0.005909173346529366,-0.00513909786461042
