#Digilent WaveForms Network Analyzer - Bode
#Device Name: Discovery2
#Serial Number: SN:210321A7F296
#Date Time: 2026-07-05 21:02:06.142
#Start: 10 Hz
#Stop: 2.5e+07 Hz
#Steps: 1001
#Wavegen: Wavegen C1
#Amplification: 1 X
#Settle: 10 ms
#MinPeriods: 16 
#Channel: Channel 1
#Range: 5.45848 V
#Offset: -0.000277946 V
#Relative: no
#Channel: Channel 2
#Range: 5.54417 V
#Offset: 0.000228067 V
#Relative: yes

Frequency (Hz),Channel 1 Magnitude (dB),Channel 2 Magnitude (dB),Channel 2 Phase (deg)
10,-0.02937316475198615,-57.7795066691293,-0.3482635149072664
10.14840849106678,-0.0294195480464114,-57.73510332727721,-0.6318913203206478
10.29901949015561,-0.02948966208438345,-57.8842961411485,-0.5801437630262569
10.45186568435574,-0.0292658100168534,-57.70214790219407,0.2784886203280479
10.60698024586051,-0.02947726831140434,-57.99495457374137,-0.5144506503275643
10.76439683916683,-0.02922371536268025,-57.92877805705189,-0.3517292941442349
10.92414962838129,-0.02929245846375004,-57.83923869208081,0.0680636945366615
11.08627328463486,-0.0294768806821432,-58.00202598580857,0.1924948254526839
11.2508029936075,-0.02931044122045565,-57.8940865615771,-0.3282832452620994
11.41777446316459,-0.02926295161327123,-57.94936131087219,0.082160651280347
11.58722393110649,-0.02906219597924121,-58.00243767157177,0.03556358831330186
11.7591881730333,-0.02904703345179578,-57.80663663237124,0.8006989772142106
11.93370451032632,-0.02889075209776498,-57.97508312793528,-0.1724449142151325
12.11081081824773,-0.02897580599153481,-58.05929382892485,0.5264311789687923
12.29054553416086,-0.02893866460966332,-57.94750143521669,0.2334644631670812
12.47294766587207,-0.02899679482486716,-58.05128152236243,-0.07985885502957046
12.65805680009677,-0.02934205592305918,-58.1771474057712,-0.1518811378294203
12.84591311105073,-0.02916790527982486,-58.00662033834616,-0.8537005613616477
13.03655736916933,-0.02893694841252186,-58.07725360736413,0.4511733757558716
13.23003094995569,-0.02900309457674693,-57.92369023352423,0.3030788512782152
13.42637584296066,-0.02899842285669547,-58.06880179038875,0.1792435686283085
13.62563466089558,-0.02869290353611913,-58.04058161155374,-0.6133071004904025
13.82785064888063,-0.02898012588202592,-57.9431028594941,-0.5182062537432586
14.03306769383034,-0.02886119924773667,-58.16967723452497,-0.1909290398734242
14.24133033397824,-0.02882923662619343,-58.01267781494247,-0.5005925235099851
14.45268376854316,-0.02868355151488003,-58.04270632634066,-0.6036199528762438
14.66717386753861,-0.0289122486504949,-58.00283345508469,0.3646189421263699
14.88484718172816,-0.02884226368209142,-58.09225872246212,-0.2622596321553772
15.10575095272812,-0.02866519817988279,-58.03919910947489,-0.05181188537662251
15.32993312326061,-0.02830359527017402,-58.16972139737189,0.3180448864947181
15.55744234755838,-0.02855605378219237,-58.14315865163861,0.4412333776613728
15.7883280019243,-0.02853685871528722,-58.04088795396655,0.1927243879693492
16.02264019544759,-0.0284991292853676,-58.03724474987122,-0.5200813293795399
16.26042978087878,-0.02824128831742134,-58.06816350654809,-0.08101006106144837
16.50174836566654,-0.02873250733283083,-58.08567563416556,0.2373824325971583
16.74664832315773,-0.02868362719598039,-58.05410089134774,-0.6830457552267433
16.99518280396431,-0.02855208419785628,-58.0899186421164,-0.3512390923428796
17.24740574749831,-0.02835165950796454,-57.90200403168298,-0.1910427163014674
17.50337189367858,-0.02847975875833392,-58.16007057457725,0.1335506728999007
17.76313679481069,-0.02843800435921067,-58.11334888751397,0.09874996097622102
18.02675682764376,-0.02843128030904131,-58.23886378524038,-0.3944089109809283
18.29428920560559,-0.02866551005554154,-58.10828687142222,-0.2834484202700729
18.56579199121987,-0.02857455984729024,-58.11586374254897,-0.2861487569290944
18.84132410870752,-0.02838182557025922,-57.96343740922325,0.1944277569244548
19.12094535677483,-0.0286145226580656,-58.0107785745455,-0.2892810998881572
19.40471642159175,-0.02853980283571848,-58.23236414811507,-0.491499077361766
19.69269888996243,-0.02847263682971952,-58.25675973241771,-0.01094393548778427
19.9849552626916,-0.02841281690085219,-58.12713452174143,0.251717391591896
20.28154896814887,-0.02855761059468501,-58.09034619727115,-0.2833032242614308
20.58254437603486,-0.02852819025996735,-58.18799067225515,-0.01426532568449446
20.88800681135109,-0.02860203329013512,-58.08885923967842,-0.1360568071847865
21.19800256857757,-0.02864364046340391,-57.95263322227753,0.4359265891582709
21.5125989260608,-0.02849996913709491,-58.33074076384801,-0.4484332391861585
21.8318641606149,-0.0287194855306097,-58.2100931941485,-0.3060940869845723
22.15586756234007,-0.02858941529973485,-58.24632540035574,0.512816425411188
22.48467944966025,-0.02864652847836032,-58.28327060378516,-0.030024796847826
22.81837118458467,-0.02873811447403529,-58.35816788069776,0.01774594303974908
23.15701518819521,-0.02854738138580116,-58.16793396497921,1.150881723047952
23.50068495636426,-0.02852646084618414,-58.08421219038437,0.3761673500139437
23.84945507570519,-0.02850356160933025,-58.15673018125597,-0.4444680702397648
24.20340123976022,-0.02851813040099201,-58.1033374870489,-0.4413238072200727
24.56260026542783,-0.02859912067939197,-58.15062657878205,0.2318378168471042
24.92713010963469,-0.02856949806208711,-58.1420845318022,-0.1948608034387824
25.29706988625425,-0.02877287442854176,-58.08587077150685,0.1708079388577026
25.67249988327723,-0.02846230689530703,-58.33382934043942,-0.4083599375422082
26.05350158023609,-0.02848555615586216,-58.08865345547675,-0.02255309795792826
26.44015766588897,-0.02851887409995348,-58.12514452071178,-0.4277022318986363
26.83255205616514,-0.02870173053354229,-58.14584373222209,0.2658863088478398
27.23076991237776,-0.02835008437411632,-58.28741041544747,0.3711591188638295
27.63489765970597,-0.02871081843404859,-58.17788527860272,0.8135615975757133
28.0450230059522,-0.02849053278443158,-58.23270141251253,0.688008597786677
28.46123496057672,-0.02871280983087643,-58.06968117430367,-0.2142638999368529
28.88362385401635,-0.02848034667537074,-58.3420454923581,-0.2667945931313085
29.31228135728778,-0.02841528058691812,-58.23282227834872,-0.8278447115108918
29.74730050188377,-0.02850463269094581,-58.12197188016482,-0.03415649968015089
30.18877569996317,-0.02832183346835078,-58.28114101682146,-0.5528372143984086
30.63680276484166,-0.02841048380047072,-58.16578418066279,-1.166378981572393
31.09147893178572,-0.02844523612298405,-58.19226223165725,-0.3053263675786866
31.55290287911574,-0.02860341610453484,-58.22124152333593,-0.1334540743350487
32.02117474962236,-0.02860580708602154,-58.26836830612336,-0.1448331270583196
32.4963961723,-0.02840040161523621,-58.24021122846001,0.2444222787072761
32.97867028440392,-0.028578548055835,-58.10846158197299,-0.5627262411006484
33.46810175383357,-0.02856443560907874,-58.16861816251999,0.2756767858656701
33.96479680184915,-0.02860016850124011,-58.20658577307317,1.075101327567523
34.46886322612429,-0.0285375440263803,-58.1665631737119,0.2187126367489327
34.98041042414192,-0.02862832516363158,-58.23731977066213,-0.3813306811961041
35.49954941693627,-0.0283918856680345,-58.13047865106262,0.01475888439612305
36.02639287318799,-0.02821691230149885,-58.30709096341336,-0.3905592830626787
36.56105513367687,-0.02840319904344846,-58.29028021928723,-0.2498478385312666
37.10365223609661,-0.02811644617343642,-58.1726425947319,0.1726537855369088
37.65430194023916,-0.02828795045793646,-58.13236785402012,-0.4553729179369554
38.21312375355146,-0.02831150103463633,-58.14765567048228,-0.3492662008972758
38.78023895707273,-0.02836151786494054,-58.21367452838111,-0.313746940644819
39.35577063175547,-0.02807598048172457,-58.20616225346042,-0.6662406240091627
39.93984368517837,-0.02834064534692571,-58.30721229358647,-0.139989301324789
40.53258487865432,-0.02834745746513025,-58.21449536037862,0.1396800373575502
41.13412285474203,-0.02814146049760927,-58.05118065230241,0.1446317117385831
41.7445881651648,-0.02840797458614721,-58.01494166555447,0.2076771106951867
42.36411329914434,-0.02820223087839668,-58.31056215878533,0.4777354746957485
42.99283271215513,-0.02828402555761348,-58.38318624429019,-1.209807411242458
43.63088285510478,-0.02816254094783056,-58.26705066255619,1.114532367566959
44.27840220394852,-0.02824147678556833,-58.12675590180496,1.052679887322029
44.93553128974202,-0.02815962229865663,-58.22487860460193,-0.1293687965124235
45.60241272914148,-0.02824272350026345,-58.05239031272922,0.4343716723222713
46.27919125535502,-0.02824776594828295,-57.95799760739706,-0.6242715529681107
46.96601374955482,-0.02814388342492382,-58.10736510649896,0.1992819784453062
47.66302927275411,-0.02826093624499095,-58.17436402436481,-0.5038023069190274
48.37038909815812,-0.02810830804985169,-58.36917578678239,-0.1589068641111098
49.08824674399517,-0.02813973273545419,-58.15109189017117,-1.17013825230643
49.81675800683407,-0.02824035868000629,-58.1122675727845,-0.1884533681425182
50.55608099539738,-0.02819527267962185,-58.02715096067416,0.1650592797795802
51.30637616487495,-0.02823300772582306,-58.31591065648957,0.6290842859512509
52.0678063517483,-0.02827238695393131,-58.287895492817,0.3757198670623723
52.84053680913021,-0.02832923719565699,-58.12860928489699,-0.06356625482832357
53.62473524263036,-0.02818725402352226,-58.26816385036985,0.638186988905403
54.42057184675168,-0.02851354860273449,-58.20509745379599,0.5486942862218882
55.22821934182844,-0.02857556448003399,-58.22078778529588,-0.4282149520942653
56.04785301151101,-0.02817490769879328,-58.21427792216384,-0.531640718540821
56.87965074080798,-0.0280840075757498,-58.25538186141302,-0.3742347792830714
57.72379305469284,-0.02843971829821253,-58.22788406720002,0.1926687943865488
58.58046315728252,-0.02866685397416535,-58.18090156594693,-0.03815025408222539
59.44984697159904,-0.02813284808565929,-58.30062884062527,-0.3269359600267876
60.3321331799195,-0.02794546902028449,-58.31553528651344,-0.1764191402624036
61.22751326472667,-0.02848075098406913,-58.16917975119962,0.2963013901380194
62.13618155026546,-0.02811127221237552,-58.37030089316138,0.2143062990755062
63.05833524471809,-0.02872610882639242,-58.25707930599222,-0.1234398389045737
63.99417448300325,-0.02872793328925201,-58.28854197196932,-0.1491099467623087
64.94390237021177,-0.02856328437795102,-58.3081364651967,-0.1648897735592101
65.9077250256869,-0.02849988166881961,-58.2845841298467,-0.6851192524313632
66.88585162775739,-0.02828306357121748,-58.34853379142537,-1.124702272904983
67.87849445913658,-0.02800888416326748,-58.20890279830545,-0.3999862347610588
68.88586895299294,-0.02814520799819187,-58.19570154493356,0.5818151054702749
69.90819373970669,-0.02823749490056052,-58.30568532689112,-0.2002829494069829
70.94569069431792,-0.02804851822649318,-58.37848404451415,-0.4057903124391942
71.99858498468133,-0.02802848276729705,-58.20435949219485,0.303991759812428
73.0671051203333,-0.02794611465881489,-58.14500620267309,-0.2616773305053925
74.15148300208578,-0.02806046556148946,-58.224659475672,-0.2179098874248666
75.25195397235611,-0.02800702019740753,-58.12933231686371,-0.5861727224768742
76.36875686624235,-0.02798101824878531,-58.39135145409099,-1.046680840172058
77.50213406335881,-0.02790997412482469,-58.11753007728526,-0.3792338449321164
78.65233154043847,-0.02817588743963871,-58.18143782580833,-0.8247263661914488
79.81959892471851,-0.0281661232139483,-58.2421364248008,0.3089763580370004
81.00418954811562,-0.02782892058387337,-58.33709587098004,-0.6559381014613734
82.20636050220793,-0.02815341710999161,-58.31028091899569,-0.6034275194775205
83.42637269403019,-0.02794272074688836,-58.27017643326847,-0.3184758338829141
84.66449090269975,-0.0279818488672058,-58.18933451870011,0.4909109335581974
85.92098383688041,-0.02829680159699056,-58.33609574857435,-1.020968866039098
87.19612419310067,-0.02822030006089711,-58.17611387577369,0.2433384149452813
88.49018871493762,-0.02806703909499737,-58.3253206724638,0.5015562901934629
89.80345825307725,-0.02808636579088906,-58.25897476887401,-0.487735236825749
91.136217826269,-0.02778271361555798,-58.09944208643574,-0.1072018439982614
92.48875668318179,-0.02794395865022239,-58.31263796257474,0.6200508049782769
93.86136836518114,-0.02782217063974638,-58.23561194811517,-0.4652545162713295
95.25435077003488,-0.02834296248063949,-58.25861196420449,-0.6055664001904688
96.66800621656753,-0.02798574586388059,-58.37534922644999,-0.366205178638138
98.102641510271,-0.02804427468856526,-58.15805890711131,-0.2170181061967114
99.55856800989123,-0.02807777550890986,-58.30723070730266,-0.5263911927095677
101.0361016950029,-0.02789280437063175,-58.24815082021777,0.074283712523453
102.5355632345852,-0.0281250497594032,-58.23758875825068,-0.4892620715506837
104.0572780566179,-0.02815192658143102,-58.10145650988613,-0.171353971983109
105.6015764187076,-0.02778536733184437,-58.17993742924426,-0.2929554460337798
107.1687934797649,-0.02791552910218767,-58.31926731542406,0.06774064043055006
108.7592693727426,-0.02814516179060088,-58.29397669920154,0.4154793127275269
110.373349278456,-0.02797784782224953,-58.09356264153617,-0.6182610808861
112.011383500496,-0.02826179059089213,-58.41190366956325,-0.02910446089759944
113.673727541257,-0.02799737681884899,-58.31367369027647,0.1340794953679278
115.3607421790904,-0.02815028030500415,-58.24120611270754,0.1489325671456498
117.0727935466044,-0.02799875236212491,-58.27721710626587,0.487411703547707
118.8102532101268,-0.0283134131048282,-58.24498879591613,-0.2376601085141061
120.5734982503442,-0.02809796497244149,-58.35967070678159,-0.0874315191539381
122.3629113441419,-0.02824685539040075,-58.13471193063413,-0.5408362887648011
124.1788808476538,-0.02821061523986593,-58.25038352461875,-0.3803610367565469
126.0218008805497,-0.02774308260717241,-58.19132427036864,0.2396744327593296
127.8920714115697,-0.02778504975484425,-58.34321007800858,0.123681216423364
129.790098345329,-0.02785143566373835,-58.32418280209023,-0.266591619724835
131.7162936104132,-0.02785695070682889,-58.21436012667,0.3712394969892898
133.6710752487757,-0.0279384877219171,-58.3197174234052,0.1368433239755831
135.6548675064704,-0.02808121990967016,-58.27783313312047,0.1224729996022802
137.6681009257197,-0.02835039030316754,-58.26026548198364,-0.4921714612406802
139.7112124383615,-0.02790574103384576,-58.31562702944188,0.4300964174961734
141.7846454606696,-0.02798785918565033,-58.3255687923718,-0.4927391293773837
143.8888499895955,-0.02786293245009867,-58.40132177650035,-0.4130339314918672
146.0242827004242,-0.02805525359867838,-58.40906449380331,-0.18406332598527
148.191407045892,-0.02789059569227065,-58.2014113317921,-0.2448400794054635
150.3906933567661,-0.02788908281939395,-58.1603433411005,-0.7103001291201494
152.6226189439225,-0.02810494293358301,-58.1880599277365,-1.306412010976814
154.8876682019349,-0.02800233434931867,-58.26907357834596,-0.6451815566214094
157.186332714205,-0.02800430149293691,-58.03217239150774,0.2511039389769394
159.5191113596482,-0.02808861794665035,-58.28739687097659,-0.8049288351157315
161.8865104209681,-0.02812880106102488,-58.29638050210378,0.3120719062212629
164.289043694532,-0.02804145237401969,-58.35615795586152,0.7115719838445571
166.7272326018829,-0.02831327084074068,-58.22698448708874,0.3900887282214662
169.201606302901,-0.02778936238898084,-58.27724199714444,-0.9751564352521029
171.7127018106499,-0.0278092941324358,-58.357186089302,-0.3116049822125717
174.2610641079214,-0.02808059845186615,-58.3143648225757,0.03532772972508269
176.8472462655165,-0.02786211757950283,-58.23752214495413,0.19999490690968
179.4718095622737,-0.02782069175560558,-58.45912082492624,0.03203556088129744
182.1353236068902,-0.02807588984961655,-58.17923006466713,0.1910272730787597
184.8383664615353,-0.02766141678830529,-58.27594193817503,-0.7353145346836385
187.5815247673161,-0.02776534896147721,-58.13618193094848,-0.7512568238272905
190.3653938715876,-0.02809972394897032,-58.26370974158142,-1.13861358684936
193.1905779571695,-0.02797009560118242,-58.25348611499023,0.6137336716637094
196.0576901734633,-0.02824796534763973,-58.27087246737129,-0.7480892800122376
198.9673527695315,-0.02789012054976847,-58.35229229707246,-0.5709320629761621
201.9201972291388,-0.02786411461463451,-58.15247535973626,-0.6113372411591058
204.9168644078066,-0.02782787838205526,-58.20936776490502,0.5568974823565043
207.9580046718964,-0.02770223581988391,-58.15021131196461,-0.5986283953564424
211.0442780397574,-0.02825298005236621,-58.14602527220241,-0.2721439293255941
214.1763543249731,-0.02810723505062703,-58.3367199817954,0.3775903103279106
217.354913281728,-0.02809871440790477,-58.31350768705997,0.5942280653881369
220.5806447523372,-0.02813989070572705,-58.32112125040855,0.4194899772436429
223.8542488169603,-0.02843499229678748,-58.28680334178134,-0.5273731371198735
227.176435945541,-0.02785894339100359,-58.24643457139699,-0.4259901290791959
230.5479271520016,-0.02796609977496547,-58.13503699322281,-0.3420310869268945
233.9694541507214,-0.02811684245864574,-58.33146520054183,0.04015532693820489
237.441759515344,-0.02790378934421491,-58.38120936483335,0.03511203523186168
240.9655968399348,-0.02782089192784564,-58.1104296742014,-0.7851716308113765
244.5417309025368,-0.02802789146661776,-58.54275875479458,-0.1388483187718066
248.1709378311466,-0.02777949501286891,-58.22125023240032,-0.6202410331770949
251.8540052721614,-0.0280002378231702,-58.15902510309301,0.591977759860967
255.5917325613174,-0.02789060971889296,-58.36689633023646,-0.1388451197616334
259.3849308971743,-0.02813456886539781,-58.25487919819763,-0.8555078931091913
263.2344235171653,-0.02815244929532982,-58.27125774780662,-1.06092653891838
267.1410458762663,-0.02789147538795491,-58.27220753068998,0.4999614706214288
271.105645828316,-0.02814396309098963,-58.13316922751432,0.1732505442809469
275.1290838100219,-0.02782353099896756,-58.20415825036349,-0.5558860576728146
279.2122330277049,-0.02813534259005637,-58.36646771352909,-0.237046835174354
283.3559796468071,-0.02825058532828954,-58.27998682786514,0.1536518666326288
287.5612229842202,-0.02789574475208597,-58.19641561379967,-1.025484578952529
291.8288757034601,-0.02769789374814626,-58.48140519573138,-1.237772986448562
296.1598640127466,-0.02795051827663704,-58.27499358601909,0.4713439154823718
300.555127866014,-0.02751322429947111,-58.2578238854534,0.3950153308297217
305.0156211669111,-0.02750829195278346,-58.16426207858275,-0.3284740565130022
309.5423119758288,-0.02793684916811426,-58.48908267181996,-2.369329375658992
314.1361827199936,-0.02790654085953243,-58.15665843202565,-0.8061978216101124
318.7982304066888,-0.02774518879007357,-58.06985842795672,-0.1844870059354093
323.5294668396297,-0.02757941635285456,-58.1586131342388,-0.4056065399679483
328.3309188385605,-0.02764036231684513,-58.31590738402825,-0.2642358598796761
333.2036284620998,-0.02766027469293145,-58.23251650119188,-1.763799698641947
338.1486532339034,-0.02789098758658112,-58.34757615242633,-0.7262304996742657
343.1670663721733,-0.02772919214156799,-58.28294006187593,0.9872883178186882
348.259957022584,-0.02802706081957432,-58.22281602838687,-0.5292051968771716
353.4284304946543,-0.028160187535225,-58.43652224369303,-1.337467441077465
358.6736085016346,-0.02788697030832912,-58.32906464433129,-0.8404108018638468
363.996629403955,-0.02773736817075989,-58.30180120761018,1.553291153992326
369.3986484562776,-0.02804659779814183,-58.12759658283628,-0.2003406954909224
374.8808380582279,-0.02763644295713576,-58.15976089048338,-0.5680886328003965
380.4443880088342,-0.02748292902226015,-58.41127027750655,-1.756184256616024
386.0905057647557,-0.02780204873835376,-58.12855498664057,-1.132007071781246
391.8204167023305,-0.02751675840911244,-58.17704990385762,0.06793029943941598
397.6353643835254,-0.02793341730637433,-58.19186031672594,-0.1171225445716289
403.5366108258202,-0.02817918256344273,-58.27567003529065,1.005483885308614
409.5254367761054,-0.02721354180319463,-58.27961967124295,-0.2260897865059235
