#Digilent WaveForms Impedance Analyzer
#Device Name: Discovery2
#Serial Number: SN:210321A7F296
#Date Time: 
#Digilent WaveForms Impedance Analyzer Trace#Trace: Trace
#Start: 1000 Hz
#Stop: 2.5e+07 Hz
#Steps: 1001
#Order: W1-C1-R-C2-DUT-GND
#Resistor: 100 Ω
#Average: 3
#ProbeResistance: 1.04e+06 Ω
#ProbeCapacitance: 0 F
#Compensation: Open Short
#Wavegen: Wavegen1
#Amplitude: 0.999935 V
#Offset: -0.000612848 V
#Amplification: 1 X
#Settle: 0.01 s
#MinPeriods: 16
#Scale: Logarithmic
#ScopeC
#SChannel: 1 
#Range: 5.45848 V
#Offset: -0.000277946 V
#Attenuation: 1 X
#ScopeC
#SChannel: 2 
#Range: 5.54417 V
#Offset: 0.000228067 V
#Attenuation: 1 X

Frequency (Hz),Trace th (deg),Trace |Z| (Ohm),Trace Rs (Ohm),Trace Xs (Ohm)
1000,2.806756498412522,0.4833828218059729,0.4828029412126778,0.02367007337319629
1010.178078950409,2.972616725532824,0.4832088754609363,0.4825586858034815,0.02505857298090718
1020.459751191941,2.675036113440464,0.4858883874729777,0.4853589170953285,0.02267700767607113
1030.846071105288,3.003276076702202,0.4829913462186263,0.4823279772332764,0.02530539270860923
1041.338103802716,2.866728277011042,0.482753168051111,0.4821490353697262,0.02414392170768244
1051.936925237291,3.325847603744051,0.482580040452557,0.4817672532866339,0.02799659093253792
1062.643622313207,2.957286434499365,0.4828529747873476,0.4822099465922953,0.02491109528797733
1073.45929299726,3.293523058072008,0.4845048787034726,0.4837046304745521,0.02783537218978141
1084.385046431436,3.228087528171172,0.4827743863332153,0.4820083582707845,0.02718548613719489
1095.42200304666,3.281647230522292,0.4839422970458807,0.4831487304470043,0.02770290846628405
1106.571294677684,3.538692565938279,0.4849082036973075,0.4839836505488565,0.02992978473614191
1117.83406467917,3.425383593551119,0.4836732624942225,0.4828091587449701,0.02889880765324574
1129.211468042934,3.052368474146288,0.4838068988054576,0.4831205134669856,0.02576208064482521
1140.704671516382,3.135443280050403,0.4826166881448515,0.4818942235183711,0.02639744335217196
1152.314853722176,3.72687661112049,0.48454408021378,0.4835193844767594,0.03149556326586064
1164.043205279092,3.460675166468194,0.4883099086621064,0.4874194578929403,0.02947607444940453
1175.890928924109,3.591003477444855,0.4837760280102367,0.482826170268476,0.0303007356550619
1187.859239635769,3.480525056228356,0.4831450463560519,0.4822538811033635,0.02933138215520289
1199.949364758755,3.665374262365446,0.4830687782274903,0.4820806296676879,0.0308822116663588
1212.162544129765,4.085913482774957,0.48480237339309,0.4835701661658718,0.03454324307131727
1224.500030204646,3.560418483070294,0.4828265870408542,0.4818946678548453,0.02998403319415052
1236.963088186847,3.437375235453834,0.4835863729818463,0.4827163666421478,0.0289946462220331
1249.552996157157,3.468817659399311,0.4834034413970353,0.4825177860230936,0.02924847561615826
1262.271045204765,3.915753375464831,0.4808152405682611,0.4796927968326414,0.0328346802876634
1275.118539559674,3.744667468134104,0.4817493623347931,0.4807208303375095,0.03146317513530958
1288.096796726446,3.748111438920086,0.486684125095371,0.4856431459510954,0.03181465716568179
1301.207147619296,3.763406132746387,0.4845133379906125,0.483468529951679,0.03180181185353891
1314.450936698602,3.952431068023389,0.4843079777407114,0.4831561096610255,0.03338249542081142
1327.829522108759,3.600371075923101,0.4830033588685458,0.4820500656419353,0.03033115383402254
1341.344275817469,4.057433621359481,0.4852965109659625,0.4840801758229677,0.03433783526871213
1354.996583756418,3.837107826172294,0.4836587517027345,0.4825745515271104,0.0323664999197578
1368.787845963426,3.964408111839929,0.4855923971576291,0.4844304669119062,0.0335722937078344
1382.719476726005,4.03152117141363,0.4856647905374649,0.4844630241343406,0.03414479483624062
1396.79290472639,4.214242695351158,0.4836990368271621,0.4823912310670665,0.03554516024896179
1411.009573188066,4.000255834074813,0.4859582784006851,0.4847743570910091,0.03390090047707489
1425.37094002376,4.165067374269397,0.4827172683970084,0.481442385255962,0.03505981870631028
1439.878477984941,4.525002676484978,0.484334071845515,0.4828244029846013,0.03821111138163644
1454.533674812867,4.008823490052164,0.4852805257186075,0.484093187918605,0.0339260084968785
1469.33803339114,4.057145692068886,0.4837839893424684,0.4825716171606738,0.03422838960637245
1484.293071899837,4.168898386770286,0.4870764129976048,0.4857876506259171,0.03540890563072097
1499.400323971179,4.37591999653176,0.4843105195647042,0.4828987094980725,0.03695288522064186
1514.661338846826,4.593727791099811,0.4851181113668203,0.4835597431311278,0.03885301531500879
1530.077681536745,4.458599721927839,0.487935606964171,0.4864589995227299,0.03793149518327271
1545.650932979684,4.307886801944784,0.4881926153644775,0.4868133751530009,0.03667107127631124
1561.382690205325,4.342890464922878,0.4849836333933333,0.4835911127730519,0.03672547217287395
1577.27456649804,4.55552706925768,0.4890068960735642,0.4874620394282383,0.0388394712111825
1593.328191562329,4.512347374146255,0.4866967602351372,0.4851881961573318,0.03829034777816963
1609.545211689963,4.850292737260525,0.4843337233104106,0.4825993364250669,0.04095163022164659
1625.927289928796,4.579099945268904,0.4852877894790674,0.4837387832158229,0.03874310558479743
1642.47610625332,4.594055875251599,0.4852140253773695,0.4836551265024309,0.03886346653128193
1659.193357736926,4.949743416486614,0.4841758275824108,0.4823702211198269,0.04177561240630343
1676.080758725967,4.92047362016153,0.4849326439782208,0.4831455267364595,0.04159410042610547
1693.140041015545,5.279056282238717,0.4848702542009755,0.4828136268399292,0.04461126703639016
1710.3729540271,4.906137924239728,0.4841223101388591,0.48234855377946,0.04140391093905338
1727.781264987832,4.942073317198934,0.4847985487077754,0.4829962152733663,0.04176468437291523
1745.366759111919,5.242282732490474,0.486210356285512,0.4841766565399657,0.04442382042400957
1763.13123978358,5.189229715505419,0.4823354035868505,0.480358512313675,0.04362500660266761
1781.076528742029,5.062806461610941,0.4867787160346353,0.4848795786891306,0.04295710132887612
1799.204466268286,5.257971334802481,0.4839020877950043,0.4818659186281097,0.0443448648329428
1817.516911373893,5.129476940813104,0.4876420820964222,0.4856891731726307,0.04359847811816606
1836.015741991564,5.571307405608537,0.4873228237444783,0.4850207803031444,0.04731149137810865
1854.702855167748,5.020314037606952,0.4850175209570284,0.4831568650649895,0.04244336668871821
1873.580167257198,5.44614430637768,0.4858806885981834,0.4836873501519617,0.04611497431007062
1892.649614119459,5.603068597168512,0.4864627581052134,0.4841385228621033,0.04749637569575244
1911.913151317432,5.690451319804215,0.4880940982825904,0.4856888234589889,0.04839644145304662
1931.372754317866,5.4962044388585,0.4845916572546216,0.482363769153826,0.0464140979498151
1951.030418693986,5.445793700191108,0.4874050117690009,0.4852050753633608,0.04625667886019539
1970.888160330103,5.734241328610825,0.4869498221907154,0.4845131430112538,0.04865329979483007
1990.948015628369,5.587065478849401,0.4870811219370886,0.4847671962878222,0.04742135332038797
2011.212041717595,6.182761047252111,0.485748324230567,0.4829229270561956,0.05231520826949329
2031.682316664214,5.691611229155235,0.4870588955080051,0.4846577442810999,0.04830360857983419
2052.360939685372,5.754869240105523,0.4861136528712096,0.4836636401815175,0.04874388858261578
2073.250031364225,5.364421706070599,0.4860458086330218,0.4839170300633932,0.04544046769513941
2094.351733867389,5.782146003471657,0.4854618992477851,0.4829919423035041,0.04890847872460549
2115.668211164621,6.255475022539382,0.4887916905229751,0.4858813909113476,0.05325965349457447
2137.201649250725,6.194716993203755,0.488239120742507,0.4853882524418249,0.05268475505198376
2158.954256369743,6.196076739226224,0.4845370902637538,0.4817065974506859,0.05229670939693994
2180.928263241401,6.317222300177482,0.4861486423642006,0.4831967118192417,0.05349243086295659
2203.12592328985,6.299373647859758,0.4857614965358402,0.4828285439133155,0.05329942494330157
2225.549512874787,6.54960972863265,0.4887783666872131,0.4855883380064809,0.05575175094580843
2248.201331524871,6.281693869702281,0.4867406688734386,0.4838182609009981,0.05325757367826803
2271.08370217355,6.709747020708353,0.4857953321562638,0.4824680166565344,0.05676017660582784
2294.19897139726,6.262580782194854,0.4876751894597576,0.4847649437287297,0.05319811788298485
2317.549509656089,6.894728099529873,0.485978546120087,0.48246413966166,0.05833953401877492
2341.137711536855,6.739345990226249,0.4889282137916388,0.4855498643504556,0.05737706397800979
2364.965995998657,6.58931521191486,0.4886802671652655,0.4854521344316745,0.05607698897450473
2389.036806620963,6.961229142983646,0.487324940753651,0.4837325717530582,0.05906265237628539
2413.35261185419,6.77012360056472,0.4859968499961447,0.4826080492952061,0.05729231154047779
2437.915905272817,7.004652812365205,0.4892320637959957,0.4855805588299408,0.05966182307381811
2462.729205831142,6.923855687335699,0.4887262150922053,0.4851620499844995,0.05891602984918884
2487.79505812157,6.976021668830777,0.4880361112479831,0.4844232126842494,0.05927391411678637
2513.116032635573,7.275953622028357,0.4882772988065651,0.4843455351072667,0.06183949507791173
2538.694726027277,7.367123616771814,0.4906505856624489,0.4866002170851117,0.06291443350794988
2564.533761379772,7.497878785535899,0.4871687669184642,0.483003324428796,0.063570402323629
2590.635788474085,7.486991665355165,0.4878273899092685,0.48366840298944,0.06356444206735573
2617.003484060932,7.309761708921004,0.4871570507872353,0.4831978181115859,0.06198274521122516
2643.639552135202,7.494318668195577,0.4887482392337322,0.4845732536378538,0.06374639764643766
2670.546724213258,7.462702904238784,0.4878924705159805,0.4837598350437717,0.06336785292725111
2697.72775961306,7.605191482879974,0.4867613950402925,0.4824796240488213,0.0644210220291468
2725.185445737111,8.073972079338956,0.4914228000591099,0.4865516025990962,0.06902105784604418
2752.922598358332,8.127697248839745,0.4875366052631754,0.482639509330688,0.0689278282305049
2780.942061908791,8.041315802198245,0.490491536832651,0.4856687562415072,0.06861346016113211
2809.246709771412,8.133217542626513,0.4873856268837785,0.4824834062711484,0.06895296923181526
2837.839444574645,8.060245312838434,0.4887312418936197,0.4839031557553327,0.0685270942978764
2866.723198490111,8.416480758558665,0.4873692941042337,0.4821204594707664,0.0713350642766669
2895.900933533315,8.36949952456925,0.4897446226109849,0.4845288216697111,0.07128545677582074
2925.375641867383,8.095575824438347,0.488209092447387,0.4833438616556087,0.06875194068639152
2955.150346109913,8.129671563358608,0.4888413707758634,0.4839287872551008,0.06912897111799474
2985.228099642951,8.252836212446551,0.491271329047759,0.4861838619697397,0.07051787790724107
3015.611986926097,8.468107529008581,0.4886067612849994,0.4832799630887999,0.07195168135842693
3046.305123812834,8.453544973295935,0.4881490139348142,0.4828454609453998,0.0717615541216592
3077.310657870039,8.894693167903728,0.4898690974536971,0.4839780252867709,0.07574301076414539
3108.631768700776,8.904354738113957,0.4879803058703404,0.4820992180849435,0.07553226356463215
3140.271668270365,9.149838740408146,0.4932166153322564,0.4869408577711613,0.07842978179806874
3172.233601235753,9.110653499352779,0.4909779778522034,0.4847839872303557,0.0777422694605517
3204.520845278274,8.784661460087202,0.4922323539531155,0.4864581246514089,0.07517435226764209
3237.136711439752,9.455424234504202,0.4899480051859211,0.4832914290439065,0.08048877187758573
3270.084544462052,9.346369844901202,0.4919295149482897,0.4853989569251928,0.07989055196451215
3303.367723130103,9.383724946421021,0.4938013366305274,0.4871935414903044,0.08051219279233739
3336.989660618354,9.696648322320021,0.4898111492645266,0.4828133759083338,0.08249973325917076
3370.953804840829,9.616403480046024,0.4889262852021173,0.4820560160800182,0.08167563726475227
3405.263638804684,9.586200634460393,0.4932873883228379,0.4863992089586905,0.08214777539730694
3439.922680967396,9.517385107321807,0.4914871592633789,0.4847220725501818,0.08126586062697071
3474.934485597588,9.904694081493711,0.4928610146393154,0.4855150381142863,0.08477692797087262
3510.3026431395,9.991372013629551,0.4919747062746245,0.4845133642364877,0.0853575508683543
3546.030780581206,10.2607668758143,0.4912387960908353,0.4833825326971887,0.08750361059993206
3582.122561826546,10.28538705640588,0.4925677201797041,0.4846524565758356,0.08794859463367836
3618.581688070858,10.77059641438292,0.4925469707926792,0.4838699104335047,0.09204579411421558
3655.411898180551,10.29723556440613,0.4911423237574452,0.4832318203333811,0.08779402031545218
3692.616969076497,10.49380277828916,0.4912026751451112,0.4829871201886601,0.08946233733576646
3730.200716121382,10.68238788931999,0.4920583678690851,0.483530908794409,0.09121018380883171
3768.166993510942,10.57673097803016,0.4947116742816011,0.4863065103712393,0.0908053888326715
3806.519694669221,10.97290038203648,0.4948569173780034,0.4858096077106385,0.09419338476185901
3845.262752647855,11.18260627479968,0.4936911571322093,0.4843179740363985,0.0957447578503295
3884.400140529372,10.70307795772497,0.4945816124522631,0.4859772876216948,0.09185340108967706
3923.935871834664,11.12367826460675,0.4933310448736317,0.4840628433457034,0.09517711662044734
3963.874000934544,11.47096421237864,0.4963504464200911,0.4864361502642304,0.09870986464147771
4004.218623465529,11.72270321453948,0.4931266289646429,0.4828411811881996,0.1001911470281518
4044.973876749863,11.52901243179461,0.4939939096451194,0.4840269040469727,0.098731651080963
4086.143940219765,11.73011166115552,0.4980180033676028,0.487617445691716,0.1012480041054639
4127.733035846061,11.69675751239982,0.4976845437554808,0.487349768464199,0.1008965225911813
4169.745428571118,11.58824239974681,0.4974433842939645,0.4873037430608276,0.09992488467213646
4212.185426746222,11.82194725306173,0.4943617160640045,0.4838758019743435,0.1012803760529814
4255.057382573412,12.27626035821356,0.4960996311631137,0.4847556961931065,0.1054834539087248
4298.365692551765,12.14450337988455,0.4969006090528916,0.4857800353803078,0.1045369432451589
4342.114797928291,12.4583349555989,0.4936839749594174,0.4820592685880832,0.1065022473943763
4386.309185153349,12.60927075810828,0.4954915459009829,0.4835410094862344,0.1081663727984776
4430.953386340744,12.76693847792367,0.4967136221094802,0.4844333874315327,0.1097666412473756
4476.051979732507,12.733402602422,0.499184239763766,0.486907407923498,0.1100276389719843
4521.609590168359,12.80158508557617,0.4975018541903476,0.4851355624399409,0.1102342096579643
4567.630889560023,12.97044303376079,0.4972012240959921,0.4845156220293486,0.1115960091224876
4614.120597370297,13.13877512961303,0.5011384398973892,0.4880198167974151,0.1139139778771972
4661.08348109704,13.15097375161244,0.499979307177861,0.4868668195195752,0.1137541544601661
4708.524356762098,13.44583374109577,0.498469960625783,0.4848069888873146,0.1159072265748983
4756.448089405147,13.44028025340545,0.498670342354497,0.4850131149255362,0.1159068103873965
4804.85959358264,13.88008516183376,0.499480290207736,0.4848954264153708,0.1198206399059021
4853.763833871759,13.55709532329709,0.5018622726450412,0.4878787882968013,0.1176436510589954
4903.165825379545,14.08272990942636,0.5015034291181456,0.4864309449839211,0.1220271493533647
4953.070634257211,13.90115076519057,0.5020750087986335,0.4873700634722951,0.1206222852177783
5003.483378219633,14.17921554570702,0.501041372124134,0.4857767825244079,0.1227329382858126
5054.409227070217,14.44403031295824,0.4970363978710367,0.4813259538344689,0.1239778487228835
5105.853403231019,14.41307191894251,0.4994156688563463,0.4836972587695017,0.1243099841448846
5157.821182278319,14.38164950345815,0.5009552851552066,0.4852567296547788,0.1244271033564761
5210.317893483644,14.75712880045005,0.5026613157326154,0.4860806570416061,0.1280390299246463
5263.348920360249,15.08947780183635,0.5040909255923984,0.4867101000763849,0.1312285782451231
5316.919701215232,14.88720648065299,0.5043615476272365,0.4874318806903988,0.1295790585378745
5371.035729707191,15.23213414896735,0.5025350365335913,0.4848806262981044,0.1320312129179158
5425.702555409618,15.00878068012263,0.5074451323721605,0.4901342254803054,0.1314115800872228
5480.925784380019,15.35981221398043,0.5043430390632956,0.4863286272026856,0.1335902968585373
5536.711079734771,15.44815836141524,0.5045384170130575,0.4863103814155175,0.1343920651286219
5593.064162229922,15.68751661918893,0.5027741685693891,0.4840461731519992,0.1359454553765781
5649.990810847808,15.92709003693266,0.5072404650219997,0.4877683513230958,0.1391938389559089
5707.496863389696,15.68779678838471,0.5084267733544346,0.4894875500220497,0.1374762606307469
5765.5882170745,16.06324627341071,0.5075291658343419,0.4877136266985369,0.1404324481915173
5824.270829143426,16.13453752891619,0.5086359681518432,0.4886017211085031,0.1413467588152322
5883.550717471024,16.45041232999774,0.5104104540300232,0.4895168949718101,0.1445407939658982
5943.433961182179,16.52894998026807,0.5081109634413293,0.4871138405312211,0.1445574540872937
6003.92670127564,16.91815982296877,0.5079341385417885,0.4859514592786645,0.1478115973837143
6065.035141253693,16.92987297014312,0.5091597870961007,0.4870937628173411,0.1482678489092978
6126.765547758384,16.83930331710904,0.5092124936166452,0.4873779733977147,0.1475129645218291
6189.124251214114,16.91958310689006,0.5108122254326338,0.4887012938507679,0.1486612761953337
6252.117646476876,17.4495032704369,0.5117639707586696,0.4882134129860393,0.1534601744662227
6315.752193489956,17.95362758688355,0.5123400850951243,0.4873923548315159,0.1579273733304929
6380.034417946529,17.64665942862074,0.5124277117522504,0.4883149715636054,0.1553404271864948
6444.970911958709,18.2733834303929,0.5097648256077703,0.4840580172420273,0.1598374592222912
6510.568334733727,17.94494414292473,0.5146105641271198,0.4895763109367912,0.1585530462676603
6576.83341325668,18.09592767738204,0.5159098387870533,0.4903918086741661,0.160246172317979
6643.772942980501,18.40219060311613,0.5140831496899572,0.4877949642732474,0.1622885012094457
6711.393788522748,18.51230105967207,0.5139703844073863,0.4873752489640533,0.1631898365251446
6779.702884369624,18.36195543960197,0.5155087297709698,0.4892618060633392,0.162394998684437
6848.707235587054,19.10951839835286,0.5180027130088986,0.4894579348452747,0.1695810741255584
6918.413918539111,19.03044291792243,0.5181102412859012,0.4897931634937605,0.168940460281453
6988.830081613603,19.5595846995807,0.5173128261059877,0.4874606890050467,0.1731895976336023
7059.962945955275,19.37235349667935,0.5173413505122925,0.4880509438871749,0.1716052129765301
7131.819806206162,19.73706702657909,0.5176149608714254,0.4872062552723258,0.1748007795790526
7204.408031253834,19.61698043227406,0.517341025222941,0.487313515107315,0.1736872890354282
7277.735064986896,19.83053310196281,0.5221435013913643,0.4911804548631621,0.1771315804865155
7351.8084270585,20.13878613752031,0.5199298344258508,0.4881420511858345,0.1790094148087716
7426.635713657383,20.41378163080417,0.5219633035350999,0.4891830260821613,0.1820594881635513
7502.224598286924,20.57687102350871,0.524427839027134,0.4909701241768992,0.184317377130833
7578.582832551989,20.70167738738775,0.5214924075640095,0.4878215630069144,0.1843487288060272
7655.718246953934,21.0947516416397,0.5227100975071858,0.4876814680610247,0.18812929528868
7733.638751693509,21.15764337130577,0.5262510752806774,0.4907769544286236,0.1899425577268925
7812.352337482205,21.0669479126869,0.5256660648228172,0.4905310970675551,0.1889551653594235
7891.867076361503,21.30424063040854,0.5271038345543223,0.4910838459912238,0.1915074635838987
7972.191122530851,21.62375338944519,0.5235550704379649,0.4867092492775023,0.1929352701012248
8053.33271318373,21.61141680540071,0.5291047757514302,0.4919103579770705,0.1948744812381591
